name,type,start_time,duration,"ack","address","read","data"
"I2C","start",2.72136725,0.000000125,,,,
"I2C","address",2.721369875,0.000021125,true,0x76,false,
"I2C","data",2.721392375,0.000021125,true,,,0xF2
"I2C","data",2.721414875,0.000021125,true,,,0x01
"I2C","stop",2.72143925,0.000000125,,,,
"I2C","start",2.7215115,0.000000125,,,,
"I2C","address",2.721514125,0.000021125,true,0x76,false,
"I2C","data",2.721536625,0.000021125,true,,,0xF4
"I2C","data",2.721559125,0.000021125,true,,,0x25
"I2C","stop",2.7215835,0.000000125,,,,
"I2C","start",2.731793,0.000000125,,,,
"I2C","address",2.731795625,0.000021125,true,0x76,false,
"I2C","data",2.731818125,0.000021125,true,,,0xF3
"I2C","start",2.73184225,0.000000125,,,,
"I2C","address",2.731844875,0.000021125,true,0x76,true,
"I2C","data",2.731867375,0.000021125,false,,,0x00
"I2C","stop",2.73189175,0.000000125,,,,
"I2C","start",2.731995,0.000000125,,,,
"I2C","address",2.731997625,0.000021125,true,0x76,false,
"I2C","data",2.732020125,0.000021125,true,,,0xF7
"I2C","start",2.73204425,0.000000125,,,,
"I2C","address",2.732046875,0.000021125,true,0x76,true,
"I2C","data",2.732069375,0.000021125,true,,,0x53
"I2C","data",2.732091875,0.000021125,true,,,0xFD
"I2C","data",2.732114375,0.000021125,true,,,0x00
"I2C","data",2.732136875,0.000021125,true,,,0x7D
"I2C","data",2.732159375,0.000021125,true,,,0x69
"I2C","data",2.732181875,0.000021125,true,,,0x00
"I2C","data",2.732204375,0.000021125,true,,,0x63
"I2C","data",2.732226875,0.000021125,false,,,0x31
"I2C","stop",2.73225125,0.000000125,,,,
"I2C","start",2.7324065,0.000000125,,,,
"I2C","address",2.732409125,0.000021125,true,0x68,false,
"I2C","data",2.732431625,0.000021125,true,,,0x00
"I2C","start",2.73245575,0.000000125,,,,
"I2C","address",2.732458375,0.000021125,true,0x68,true,
"I2C","data",2.732480875,0.000021125,true,,,0x40
"I2C","data",2.732503375,0.000021125,true,,,0x33
"I2C","data",2.732525875,0.000021125,true,,,0x23
"I2C","data",2.732548375,0.000021125,true,,,0x01
"I2C","data",2.732570875,0.000021125,true,,,0x05
"I2C","data",2.732593375,0.000021125,true,,,0x10
"I2C","data",2.732615875,0.000021125,false,,,0x26
"I2C","stop",2.73264025,0.000000125,,,,
"I2C","start",2.732723125,0.000000125,,,,
"I2C","address",2.73272575,0.000021125,true,0x68,false,
"I2C","data",2.73274825,0.000021125,true,,,0x0F
"I2C","start",2.732772375,0.000000125,,,,
"I2C","address",2.732775,0.000021125,true,0x68,true,
"I2C","data",2.7327975,0.000021125,false,,,0x65
"I2C","stop",2.732821875,0.000000125,,,,
"I2C","start",4.118368125,0.000000125,,,,
"I2C","stop",4.118392625,0.000000125,,,,
"I2C","start",4.538697625,0.000000125,,,,
"I2C","address",4.53870775,0.000084875,false,0x08,false,
"I2C","stop",4.53880525,0.000000125,,,,
"I2C","start",4.538869875,0.000000125,,,,
"I2C","address",4.53888,0.000084875,false,0x09,false,
"I2C","stop",4.5389775,0.000000125,,,,
"I2C","start",4.539018,0.000000125,,,,
"I2C","address",4.539028125,0.000084875,false,0x0A,false,
"I2C","stop",4.5391255,0.000000125,,,,
"I2C","start",4.539166,0.000000125,,,,
"I2C","address",4.539176125,0.000084875,false,0x0B,false,
"I2C","stop",4.539273625,0.000000125,,,,
"I2C","start",4.539314,0.000000125,,,,
"I2C","address",4.539324125,0.000084875,false,0x0C,false,
"I2C","stop",4.539421625,0.000000125,,,,
"I2C","start",4.539462125,0.000000125,,,,
"I2C","address",4.53947225,0.000084875,false,0x0D,false,
"I2C","stop",4.539569625,0.000000125,,,,
"I2C","start",4.539610125,0.000000125,,,,
"I2C","address",4.53962025,0.000084875,false,0x0E,false,
"I2C","stop",4.53971775,0.000000125,,,,
"I2C","start",4.539758125,0.000000125,,,,
"I2C","address",4.53976825,0.000084875,false,0x0F,false,
"I2C","stop",4.53986575,0.000000125,,,,
"I2C","start",4.53990625,0.000000125,,,,
"I2C","address",4.539916375,0.000084875,false,0x10,false,
"I2C","stop",4.54001375,0.000000125,,,,
"I2C","start",4.54005425,0.000000125,,,,
"I2C","address",4.540064375,0.000084875,false,0x11,false,
"I2C","stop",4.540161875,0.000000125,,,,
"I2C","start",4.54020225,0.000000125,,,,
"I2C","address",4.540212375,0.000084875,false,0x12,false,
"I2C","stop",4.540309875,0.000000125,,,,
"I2C","start",4.540350375,0.000000125,,,,
"I2C","address",4.5403605,0.000084875,false,0x13,false,
"I2C","stop",4.540457875,0.000000125,,,,
"I2C","start",4.540498375,0.000000125,,,,
"I2C","address",4.5405085,0.000084875,false,0x14,false,
"I2C","stop",4.540606,0.000000125,,,,
"I2C","start",4.540646375,0.000000125,,,,
"I2C","address",4.5406565,0.000084875,false,0x15,false,
"I2C","stop",4.540754,0.000000125,,,,
"I2C","start",4.5407945,0.000000125,,,,
"I2C","address",4.540804625,0.000084875,false,0x16,false,
"I2C","stop",4.540902,0.000000125,,,,
"I2C","start",4.5409425,0.000000125,,,,
"I2C","address",4.540952625,0.000084875,false,0x17,false,
"I2C","stop",4.541050125,0.000000125,,,,
"I2C","start",4.5410905,0.000000125,,,,
"I2C","address",4.541100625,0.000084875,false,0x18,false,
"I2C","stop",4.541198125,0.000000125,,,,
"I2C","start",4.541238625,0.000000125,,,,
"I2C","address",4.54124875,0.000084875,false,0x19,false,
"I2C","stop",4.541346125,0.000000125,,,,
"I2C","start",4.541386625,0.000000125,,,,
"I2C","address",4.54139675,0.000084875,false,0x1A,false,
"I2C","stop",4.54149425,0.000000125,,,,
"I2C","start",4.541534625,0.000000125,,,,
"I2C","address",4.54154475,0.000084875,false,0x1B,false,
"I2C","stop",4.54164225,0.000000125,,,,
"I2C","start",4.54168275,0.000000125,,,,
"I2C","address",4.541692875,0.000084875,false,0x1C,false,
"I2C","stop",4.54179025,0.000000125,,,,
"I2C","start",4.54183075,0.000000125,,,,
"I2C","address",4.541840875,0.000084875,false,0x1D,false,
"I2C","stop",4.541938375,0.000000125,,,,
"I2C","start",4.54197875,0.000000125,,,,
"I2C","address",4.541988875,0.000084875,false,0x1E,false,
"I2C","stop",4.542086375,0.000000125,,,,
"I2C","start",4.542126875,0.000000125,,,,
"I2C","address",4.542137,0.000084875,false,0x1F,false,
"I2C","stop",4.542234375,0.000000125,,,,
"I2C","start",4.542274875,0.000000125,,,,
"I2C","address",4.542285,0.000084875,false,0x20,false,
"I2C","stop",4.5423825,0.000000125,,,,
"I2C","start",4.542422875,0.000000125,,,,
"I2C","address",4.542433,0.000084875,false,0x21,false,
"I2C","stop",4.5425305,0.000000125,,,,
"I2C","start",4.542571,0.000000125,,,,
"I2C","address",4.542581125,0.000084875,false,0x22,false,
"I2C","stop",4.5426785,0.000000125,,,,
"I2C","start",4.542719,0.000000125,,,,
"I2C","address",4.542729125,0.000084875,false,0x23,false,
"I2C","stop",4.542826625,0.000000125,,,,
"I2C","start",4.542867,0.000000125,,,,
"I2C","address",4.542877125,0.000084875,false,0x24,false,
"I2C","stop",4.542974625,0.000000125,,,,
"I2C","start",4.543015125,0.000000125,,,,
"I2C","address",4.54302525,0.000084875,false,0x25,false,
"I2C","stop",4.543122625,0.000000125,,,,
"I2C","start",4.543163125,0.000000125,,,,
"I2C","address",4.54317325,0.000084875,false,0x26,false,
"I2C","stop",4.54327075,0.000000125,,,,
"I2C","start",4.543311125,0.000000125,,,,
"I2C","address",4.54332125,0.000084875,false,0x27,false,
"I2C","stop",4.54341875,0.000000125,,,,
"I2C","start",4.54345925,0.000000125,,,,
"I2C","address",4.543469375,0.000084875,false,0x28,false,
"I2C","stop",4.543566875,0.000000125,,,,
"I2C","start",4.54360725,0.000000125,,,,
"I2C","address",4.543617375,0.000084875,false,0x29,false,
"I2C","stop",4.543714875,0.000000125,,,,
"I2C","start",4.54375525,0.000000125,,,,
"I2C","address",4.543765375,0.000084875,false,0x2A,false,
"I2C","stop",4.543862875,0.000000125,,,,
"I2C","start",4.543903375,0.000000125,,,,
"I2C","address",4.5439135,0.000084875,false,0x2B,false,
"I2C","stop",4.544011,0.000000125,,,,
"I2C","start",4.544051375,0.000000125,,,,
"I2C","address",4.5440615,0.000084875,false,0x2C,false,
"I2C","stop",4.544159,0.000000125,,,,
"I2C","start",4.5441995,0.000000125,,,,
"I2C","address",4.5442095,0.000084875,false,0x2D,false,
"I2C","stop",4.544307,0.000000125,,,,
"I2C","start",4.5443475,0.000000125,,,,
"I2C","address",4.544357625,0.000084875,false,0x2E,false,
"I2C","stop",4.544455125,0.000000125,,,,
"I2C","start",4.5444955,0.000000125,,,,
"I2C","address",4.544505625,0.000084875,false,0x2F,false,
"I2C","stop",4.544603125,0.000000125,,,,
"I2C","start",4.544643625,0.000000125,,,,
"I2C","address",4.544653625,0.000084875,false,0x30,false,
"I2C","stop",4.544751125,0.000000125,,,,
"I2C","start",4.544791625,0.000000125,,,,
"I2C","address",4.54480175,0.000084875,false,0x31,false,
"I2C","stop",4.54489925,0.000000125,,,,
"I2C","start",4.544939625,0.000000125,,,,
"I2C","address",4.54494975,0.000084875,false,0x32,false,
"I2C","stop",4.54504725,0.000000125,,,,
"I2C","start",4.54508775,0.000000125,,,,
"I2C","address",4.54509775,0.000084875,false,0x33,false,
"I2C","stop",4.54519525,0.000000125,,,,
"I2C","start",4.54523575,0.000000125,,,,
"I2C","address",4.545245875,0.000084875,false,0x34,false,
"I2C","stop",4.545343375,0.000000125,,,,
"I2C","start",4.54538375,0.000000125,,,,
"I2C","address",4.545393875,0.000084875,false,0x35,false,
"I2C","stop",4.545491375,0.000000125,,,,
"I2C","start",4.545531875,0.000000125,,,,
"I2C","address",4.545541875,0.000085,false,0x36,false,
"I2C","stop",4.545639375,0.000000125,,,,
"I2C","start",4.545679875,0.000000125,,,,
"I2C","address",4.54569,0.000084875,false,0x37,false,
"I2C","stop",4.5457875,0.000000125,,,,
"I2C","start",4.545827875,0.000000125,,,,
"I2C","address",4.545838,0.000084875,false,0x38,false,
"I2C","stop",4.5459355,0.000000125,,,,
"I2C","start",4.545976,0.000000125,,,,
"I2C","address",4.545986,0.000085,false,0x39,false,
"I2C","stop",4.5460835,0.000000125,,,,
"I2C","start",4.546124,0.000000125,,,,
"I2C","address",4.546134125,0.000084875,false,0x3A,false,
"I2C","stop",4.546231625,0.000000125,,,,
"I2C","start",4.546272,0.000000125,,,,
"I2C","address",4.546282125,0.000084875,false,0x3B,false,
"I2C","stop",4.546379625,0.000000125,,,,
"I2C","start",4.546420125,0.000000125,,,,
"I2C","address",4.546430125,0.000085,false,0x3C,false,
"I2C","stop",4.546527625,0.000000125,,,,
"I2C","start",4.546568125,0.000000125,,,,
"I2C","address",4.54657825,0.000084875,false,0x3D,false,
"I2C","stop",4.54667575,0.000000125,,,,
"I2C","start",4.546716125,0.000000125,,,,
"I2C","address",4.54672625,0.000084875,false,0x3E,false,
"I2C","stop",4.54682375,0.000000125,,,,
"I2C","start",4.54686425,0.000000125,,,,
"I2C","address",4.546874375,0.000084875,false,0x3F,false,
"I2C","stop",4.54697175,0.000000125,,,,
"I2C","start",4.54701225,0.000000125,,,,
"I2C","address",4.547022375,0.000084875,false,0x40,false,
"I2C","stop",4.547119875,0.000000125,,,,
"I2C","start",4.54716025,0.000000125,,,,
"I2C","address",4.547170375,0.000084875,false,0x41,false,
"I2C","stop",4.547267875,0.000000125,,,,
"I2C","start",4.547308375,0.000000125,,,,
"I2C","address",4.5473185,0.000084875,false,0x42,false,
"I2C","stop",4.547415875,0.000000125,,,,
"I2C","start",4.547456375,0.000000125,,,,
"I2C","address",4.5474665,0.000084875,false,0x43,false,
"I2C","stop",4.547564,0.000000125,,,,
"I2C","start",4.547604375,0.000000125,,,,
"I2C","address",4.5476145,0.000084875,false,0x44,false,
"I2C","stop",4.547712,0.000000125,,,,
"I2C","start",4.5477525,0.000000125,,,,
"I2C","address",4.547762625,0.000084875,false,0x45,false,
"I2C","stop",4.54786,0.000000125,,,,
"I2C","start",4.5479005,0.000000125,,,,
"I2C","address",4.547910625,0.000084875,false,0x46,false,
"I2C","stop",4.548008125,0.000000125,,,,
"I2C","start",4.5480485,0.000000125,,,,
"I2C","address",4.548058625,0.000084875,false,0x47,false,
"I2C","stop",4.548156125,0.000000125,,,,
"I2C","start",4.548196625,0.000000125,,,,
"I2C","address",4.54820675,0.000084875,false,0x48,false,
"I2C","stop",4.548304125,0.000000125,,,,
"I2C","start",4.548344625,0.000000125,,,,
"I2C","address",4.54835475,0.000084875,false,0x49,false,
"I2C","stop",4.54845225,0.000000125,,,,
"I2C","start",4.548501875,0.000000125,,,,
"I2C","address",4.548512,0.000084875,false,0x4A,false,
"I2C","stop",4.5486095,0.000000125,,,,
"I2C","start",4.548649875,0.000000125,,,,
"I2C","address",4.54866,0.000084875,false,0x4B,false,
"I2C","stop",4.5487575,0.000000125,,,,
"I2C","start",4.548798,0.000000125,,,,
"I2C","address",4.548808125,0.000084875,false,0x4C,false,
"I2C","stop",4.548905625,0.000000125,,,,
"I2C","start",4.548946,0.000000125,,,,
"I2C","address",4.548956125,0.000084875,false,0x4D,false,
"I2C","stop",4.549053625,0.000000125,,,,
"I2C","start",4.549094,0.000000125,,,,
"I2C","address",4.549104125,0.000084875,false,0x4E,false,
"I2C","stop",4.549201625,0.000000125,,,,
"I2C","start",4.549242125,0.000000125,,,,
"I2C","address",4.54925225,0.000084875,false,0x4F,false,
"I2C","stop",4.54934975,0.000000125,,,,
"I2C","start",4.549390125,0.000000125,,,,
"I2C","address",4.54940025,0.000084875,true,0x50,false,
"I2C","stop",4.54949775,0.000000125,,,,
"I2C","start",4.549547,0.000000125,,,,
"I2C","address",4.549557125,0.000084875,false,0x51,false,
"I2C","stop",4.549654625,0.000000125,,,,
"I2C","start",4.549695125,0.000000125,,,,
"I2C","address",4.54970525,0.000084875,false,0x52,false,
"I2C","stop",4.549802625,0.000000125,,,,
"I2C","start",4.549843125,0.000000125,,,,
"I2C","address",4.54985325,0.000084875,false,0x53,false,
"I2C","stop",4.54995075,0.000000125,,,,
"I2C","start",4.549991125,0.000000125,,,,
"I2C","address",4.55000125,0.000084875,false,0x54,false,
"I2C","stop",4.55009875,0.000000125,,,,
"I2C","start",4.55013925,0.000000125,,,,
"I2C","address",4.550149375,0.000084875,false,0x55,false,
"I2C","stop",4.55024675,0.000000125,,,,
"I2C","start",4.55028725,0.000000125,,,,
"I2C","address",4.550297375,0.000084875,false,0x56,false,
"I2C","stop",4.550394875,0.000000125,,,,
"I2C","start",4.55043525,0.000000125,,,,
"I2C","address",4.550445375,0.000084875,false,0x57,false,
"I2C","stop",4.550542875,0.000000125,,,,
"I2C","start",4.550583375,0.000000125,,,,
"I2C","address",4.5505935,0.000084875,false,0x58,false,
"I2C","stop",4.550690875,0.000000125,,,,
"I2C","start",4.550731375,0.000000125,,,,
"I2C","address",4.5507415,0.000084875,false,0x59,false,
"I2C","stop",4.550839,0.000000125,,,,
"I2C","start",4.550879375,0.000000125,,,,
"I2C","address",4.5508895,0.000084875,false,0x5A,false,
"I2C","stop",4.550987,0.000000125,,,,
"I2C","start",4.5510275,0.000000125,,,,
"I2C","address",4.551037625,0.000084875,false,0x5B,false,
"I2C","stop",4.551135,0.000000125,,,,
"I2C","start",4.5511755,0.000000125,,,,
"I2C","address",4.551185625,0.000084875,false,0x5C,false,
"I2C","stop",4.551283125,0.000000125,,,,
"I2C","start",4.5513235,0.000000125,,,,
"I2C","address",4.551333625,0.000084875,false,0x5D,false,
"I2C","stop",4.551431125,0.000000125,,,,
"I2C","start",4.551471625,0.000000125,,,,
"I2C","address",4.55148175,0.000084875,false,0x5E,false,
"I2C","stop",4.551579125,0.000000125,,,,
"I2C","start",4.551619625,0.000000125,,,,
"I2C","address",4.55162975,0.000084875,false,0x5F,false,
"I2C","stop",4.55172725,0.000000125,,,,
"I2C","start",4.551767625,0.000000125,,,,
"I2C","address",4.55177775,0.000084875,false,0x60,false,
"I2C","stop",4.55187525,0.000000125,,,,
"I2C","start",4.55191575,0.000000125,,,,
"I2C","address",4.551925875,0.000084875,false,0x61,false,
"I2C","stop",4.55202325,0.000000125,,,,
"I2C","start",4.55206375,0.000000125,,,,
"I2C","address",4.552073875,0.000084875,false,0x62,false,
"I2C","stop",4.552171375,0.000000125,,,,
"I2C","start",4.55221175,0.000000125,,,,
"I2C","address",4.552221875,0.000084875,false,0x63,false,
"I2C","stop",4.552319375,0.000000125,,,,
"I2C","start",4.552359875,0.000000125,,,,
"I2C","address",4.55237,0.000084875,false,0x64,false,
"I2C","stop",4.552467375,0.000000125,,,,
"I2C","start",4.552507875,0.000000125,,,,
"I2C","address",4.552518,0.000084875,false,0x65,false,
"I2C","stop",4.5526155,0.000000125,,,,
"I2C","start",4.552655875,0.000000125,,,,
"I2C","address",4.552666,0.000084875,false,0x66,false,
"I2C","stop",4.5527635,0.000000125,,,,
"I2C","start",4.552804,0.000000125,,,,
"I2C","address",4.552814125,0.000084875,false,0x67,false,
"I2C","stop",4.5529115,0.000000125,,,,
"I2C","start",4.552952,0.000000125,,,,
"I2C","address",4.552962125,0.000084875,true,0x68,false,
"I2C","stop",4.553059625,0.000000125,,,,
"I2C","start",4.553108875,0.000000125,,,,
"I2C","address",4.553119,0.000084875,false,0x69,false,
"I2C","stop",4.5532165,0.000000125,,,,
"I2C","start",4.553257,0.000000125,,,,
"I2C","address",4.553267,0.000085,false,0x6A,false,
"I2C","stop",4.5533645,0.000000125,,,,
"I2C","start",4.553405,0.000000125,,,,
"I2C","address",4.553415125,0.000084875,false,0x6B,false,
"I2C","stop",4.553512625,0.000000125,,,,
"I2C","start",4.553553,0.000000125,,,,
"I2C","address",4.553563125,0.000084875,false,0x6C,false,
"I2C","stop",4.553660625,0.000000125,,,,
"I2C","start",4.553701125,0.000000125,,,,
"I2C","address",4.553711125,0.000085,false,0x6D,false,
"I2C","stop",4.553808625,0.000000125,,,,
"I2C","start",4.553849125,0.000000125,,,,
"I2C","address",4.55385925,0.000084875,false,0x6E,false,
"I2C","stop",4.55395675,0.000000125,,,,
"I2C","start",4.553997125,0.000000125,,,,
"I2C","address",4.55400725,0.000084875,false,0x6F,false,
"I2C","stop",4.55410475,0.000000125,,,,
"I2C","start",4.55414525,0.000000125,,,,
"I2C","address",4.55415525,0.000085,false,0x70,false,
"I2C","stop",4.55425275,0.000000125,,,,
"I2C","start",4.55429325,0.000000125,,,,
"I2C","address",4.554303375,0.000084875,false,0x71,false,
"I2C","stop",4.554400875,0.000000125,,,,
"I2C","start",4.55444125,0.000000125,,,,
"I2C","address",4.554451375,0.000084875,false,0x72,false,
"I2C","stop",4.554548875,0.000000125,,,,
"I2C","start",4.554589375,0.000000125,,,,
"I2C","address",4.554599375,0.000085,false,0x73,false,
"I2C","stop",4.554696875,0.000000125,,,,
"I2C","start",4.554737375,0.000000125,,,,
"I2C","address",4.5547475,0.000084875,false,0x74,false,
"I2C","stop",4.554845,0.000000125,,,,
"I2C","start",4.554885375,0.000000125,,,,
"I2C","address",4.5548955,0.000084875,false,0x75,false,
"I2C","stop",4.554993,0.000000125,,,,
"I2C","start",4.5550335,0.000000125,,,,
"I2C","address",4.555043625,0.000084875,true,0x76,false,
"I2C","stop",4.555141,0.000000125,,,,
"I2C","start",4.555190375,0.000000125,,,,
"I2C","address",4.5552005,0.000084875,false,0x77,false,
"I2C","stop",4.555297875,0.000000125,,,,
"I2C","start",4.561797125,0.000000125,,,,
"I2C","address",4.56179975,0.000021125,true,0x76,false,
"I2C","data",4.56182225,0.000021125,true,,,0xD0
"I2C","start",4.561846375,0.000000125,,,,
"I2C","address",4.561849,0.000021125,true,0x76,true,
"I2C","data",4.5618715,0.000021125,false,,,0x60
"I2C","stop",4.561895875,0.000000125,,,,
"I2C","start",4.56201125,0.000000125,,,,
"I2C","address",4.562013875,0.000021125,true,0x76,false,
"I2C","data",4.562036375,0.000021125,true,,,0x88
"I2C","start",4.562060625,0.000000125,,,,
"I2C","address",4.562063125,0.00002125,true,0x76,true,
"I2C","data",4.562085625,0.00002125,true,,,0x35
"I2C","data",4.562108125,0.000021125,true,,,0x6D
"I2C","data",4.562130625,0.000021125,true,,,0x14
"I2C","data",4.562153125,0.000021125,true,,,0x66
"I2C","data",4.562175625,0.000021125,true,,,0x32
"I2C","data",4.562198125,0.000021125,true,,,0x00
"I2C","data",4.562220625,0.000021125,true,,,0x91
"I2C","data",4.562243125,0.000021125,true,,,0x8F
"I2C","data",4.562265625,0.000021125,true,,,0x04
"I2C","data",4.562288125,0.000021125,true,,,0xD6
"I2C","data",4.562310625,0.000021125,true,,,0xD0
"I2C","data",4.562333125,0.000021125,true,,,0x0B
"I2C","data",4.562355625,0.000021125,true,,,0xE9
"I2C","data",4.562378125,0.000021125,true,,,0x1D
"I2C","data",4.562400625,0.000021125,true,,,0xD2
"I2C","data",4.562423125,0.000021125,true,,,0xFF
"I2C","data",4.562445625,0.000021125,true,,,0xF9
"I2C","data",4.562468125,0.000021125,true,,,0xFF
"I2C","data",4.562490625,0.000021125,true,,,0xB4
"I2C","data",4.562513125,0.000021125,true,,,0x2D
"I2C","data",4.562535625,0.000021125,true,,,0xE8
"I2C","data",4.562558125,0.000021125,true,,,0xD1
"I2C","data",4.562580625,0.000021125,true,,,0x88
"I2C","data",4.562603125,0.000021125,true,,,0x13
"I2C","data",4.562625625,0.000021125,true,,,0x00
"I2C","data",4.562648125,0.000021125,false,,,0x4B
"I2C","stop",4.5626725,0.000000125,,,,
"I2C","start",4.562763375,0.000000125,,,,
"I2C","address",4.562766,0.000021125,true,0x76,false,
"I2C","data",4.5627885,0.000021125,true,,,0xE1
"I2C","start",4.56281275,0.000000125,,,,
"I2C","address",4.56281525,0.000021125,true,0x76,true,
"I2C","data",4.56283775,0.000021125,true,,,0x7D
"I2C","data",4.56286025,0.000021125,true,,,0x01
"I2C","data",4.56288275,0.000021125,true,,,0x00
"I2C","data",4.56290525,0.000021125,true,,,0x11
"I2C","data",4.56292775,0.000021125,true,,,0x24
"I2C","data",4.56295025,0.000021125,true,,,0x03
"I2C","data",4.56297275,0.000021125,false,,,0x1E
"I2C","stop",4.562997125,0.000000125,,,,
"I2C","start",4.56310675,0.000000125,,,,
"I2C","address",4.56310925,0.000021125,true,0x76,false,
"I2C","data",4.56313175,0.000021125,true,,,0xF5
"I2C","data",4.56315425,0.000021125,true,,,0x00
"I2C","stop",4.563178625,0.000000125,,,,
"I2C","start",4.5632385,0.000000125,,,,
"I2C","address",4.563241125,0.000021125,true,0x76,false,
"I2C","data",4.563263625,0.000021125,true,,,0xF2
"I2C","data",4.563286125,0.000021125,true,,,0x01
"I2C","stop",4.5633105,0.000000125,,,,
"I2C","start",4.568260125,0.000000125,,,,
"I2C","address",4.568262625,0.00002125,true,0x68,false,
"I2C","data",4.568285125,0.00002125,true,,,0x0F
"I2C","start",4.568309375,0.000000125,,,,
"I2C","address",4.568312,0.000021125,true,0x68,true,
"I2C","data",4.5683345,0.000021125,false,,,0x65
"I2C","stop",4.56835875,0.000000125,,,,
"I2C","start",4.57162025,0.000000125,,,,
"I2C","address",4.57162275,0.00002125,true,0x68,false,
"I2C","data",4.57164525,0.00002125,true,,,0x00
"I2C","start",4.5716695,0.000000125,,,,
"I2C","address",4.571672125,0.000021125,true,0x68,true,
"I2C","data",4.571694625,0.000021125,true,,,0x42
"I2C","data",4.571717125,0.000021125,true,,,0x33
"I2C","data",4.571739625,0.000021125,true,,,0x23
"I2C","data",4.571762125,0.000021125,true,,,0x01
"I2C","data",4.571784625,0.000021125,true,,,0x05
"I2C","data",4.571807125,0.000021125,true,,,0x10
"I2C","data",4.571829625,0.000021125,false,,,0x26
"I2C","stop",4.571853875,0.000000125,,,,
"I2C","start",4.571944125,0.000000125,,,,
"I2C","address",4.57194675,0.000021125,true,0x68,false,
"I2C","data",4.57196925,0.000021125,true,,,0x0F
"I2C","start",4.5719935,0.000000125,,,,
"I2C","address",4.571996,0.000021125,true,0x68,true,
"I2C","data",4.5720185,0.000021125,false,,,0x65
"I2C","stop",4.572042875,0.000000125,,,,
"I2C","start",4.576104625,0.000000125,,,,
"I2C","address",4.576107125,0.00002125,true,0x68,false,
"I2C","data",4.576129625,0.00002125,true,,,0x00
"I2C","start",4.576153875,0.000000125,,,,
"I2C","address",4.5761565,0.000021125,true,0x68,true,
"I2C","data",4.576179,0.000021125,true,,,0x42
"I2C","data",4.5762015,0.000021125,true,,,0x33
"I2C","data",4.576224,0.000021125,true,,,0x23
"I2C","data",4.5762465,0.000021125,true,,,0x01
"I2C","data",4.576269,0.000021125,true,,,0x05
"I2C","data",4.5762915,0.000021125,true,,,0x10
"I2C","data",4.576314,0.000021125,false,,,0x26
"I2C","stop",4.57633825,0.000000125,,,,
"I2C","start",4.576426125,0.000000125,,,,
"I2C","address",4.57642875,0.000021125,true,0x68,false,
"I2C","data",4.57645125,0.000021125,true,,,0x0F
"I2C","start",4.5764755,0.000000125,,,,
"I2C","address",4.576478,0.000021125,true,0x68,true,
"I2C","data",4.5765005,0.000021125,false,,,0x65
"I2C","stop",4.576524875,0.000000125,,,,
"I2C","start",9.582665375,0.000000125,,,,
"I2C","address",9.582668,0.000021125,true,0x76,false,
"I2C","data",9.5826905,0.000021125,true,,,0xF2
"I2C","data",9.582713,0.000021125,true,,,0x01
"I2C","stop",9.582737375,0.000000125,,,,
"I2C","start",9.58280875,0.000000125,,,,
"I2C","address",9.582811375,0.000021125,true,0x76,false,
"I2C","data",9.582833875,0.000021125,true,,,0xF4
"I2C","data",9.582856375,0.000021125,true,,,0x25
"I2C","stop",9.58288075,0.000000125,,,,
"I2C","start",9.59308525,0.000000125,,,,
"I2C","address",9.593087875,0.000021125,true,0x76,false,
"I2C","data",9.593110375,0.000021125,true,,,0xF3
"I2C","start",9.593134625,0.000000125,,,,
"I2C","address",9.593137125,0.000021125,true,0x76,true,
"I2C","data",9.593159625,0.000021125,false,,,0x00
"I2C","stop",9.593184,0.000000125,,,,
"I2C","start",9.59328725,0.000000125,,,,
"I2C","address",9.593289875,0.000021125,true,0x76,false,
"I2C","data",9.593312375,0.000021125,true,,,0xF7
"I2C","start",9.5933365,0.000000125,,,,
"I2C","address",9.593339125,0.000021125,true,0x76,true,
"I2C","data",9.593361625,0.000021125,true,,,0x53
"I2C","data",9.593384125,0.000021125,true,,,0xFF
"I2C","data",9.593406625,0.000021125,true,,,0x00
"I2C","data",9.593429125,0.000021125,true,,,0x7D
"I2C","data",9.593451625,0.000021125,true,,,0x69
"I2C","data",9.593474125,0.000021125,true,,,0x00
"I2C","data",9.593496625,0.000021125,true,,,0x63
"I2C","data",9.593519125,0.000021125,false,,,0x2A
"I2C","stop",9.5935435,0.000000125,,,,
"I2C","start",9.593706125,0.000000125,,,,
"I2C","address",9.59370875,0.000021125,true,0x68,false,
"I2C","data",9.59373125,0.000021125,true,,,0x00
"I2C","start",9.5937555,0.000000125,,,,
"I2C","address",9.593758,0.000021125,true,0x68,true,
"I2C","data",9.5937805,0.000021125,true,,,0x47
"I2C","data",9.593803,0.000021125,true,,,0x33
"I2C","data",9.5938255,0.000021125,true,,,0x23
"I2C","data",9.593848,0.000021125,true,,,0x01
"I2C","data",9.5938705,0.000021125,true,,,0x05
"I2C","data",9.593893,0.000021125,true,,,0x10
"I2C","data",9.5939155,0.000021125,false,,,0x26
"I2C","stop",9.593939875,0.000000125,,,,
"I2C","start",9.59402275,0.000000125,,,,
"I2C","address",9.594025375,0.000021125,true,0x68,false,
"I2C","data",9.594047875,0.000021125,true,,,0x0F
"I2C","start",9.594072125,0.000000125,,,,
"I2C","address",9.594074625,0.00002125,true,0x68,true,
"I2C","data",9.594097125,0.00002125,false,,,0x65
"I2C","stop",9.5941215,0.000000125,,,,
