name,type,start_time,duration,"ack","address","read","data"
"I2C","start",4.988108375,0.000000125,,,,
"I2C","address",4.988111,0.000021125,true,0x76,false,
"I2C","data",4.9881335,0.000021125,true,,,0xF2
"I2C","data",4.988156,0.000021125,true,,,0x01
"I2C","stop",4.988180375,0.000000125,,,,
"I2C","start",4.988249625,0.000000125,,,,
"I2C","address",4.98825225,0.000021125,true,0x76,false,
"I2C","data",4.98827475,0.000021125,true,,,0xF4
"I2C","data",4.98829725,0.000021125,true,,,0x25
"I2C","stop",4.988321625,0.000000125,,,,
"I2C","start",4.9985325,0.000000125,,,,
"I2C","address",4.998535125,0.000021125,true,0x76,false,
"I2C","data",4.998557625,0.000021125,true,,,0xF3
"I2C","start",4.998581875,0.000000125,,,,
"I2C","address",4.998584375,0.00002125,true,0x76,true,
"I2C","data",4.998606875,0.00002125,false,,,0x00
"I2C","stop",4.99863125,0.000000125,,,,
"I2C","start",4.99901775,0.000000125,,,,
"I2C","address",4.999020375,0.000021125,true,0x76,false,
"I2C","data",4.999042875,0.000021125,true,,,0xF7
"I2C","start",4.999067125,0.000000125,,,,
"I2C","address",4.999069625,0.00002125,true,0x76,true,
"I2C","data",4.999092125,0.00002125,true,,,0x54
"I2C","data",4.999114625,0.00002125,true,,,0x02
"I2C","data",4.999137125,0.00002125,true,,,0x00
"I2C","data",4.999159625,0.00002125,true,,,0x7D
"I2C","data",4.999182125,0.00002125,true,,,0x7F
"I2C","data",4.999204625,0.00002125,true,,,0x00
"I2C","data",4.999227125,0.00002125,true,,,0x63
"I2C","data",4.999249625,0.00002125,false,,,0xAD
"I2C","stop",4.999274,0.000000125,,,,
"I2C","start",4.999439625,0.000000125,,,,
"I2C","address",4.99944225,0.000021125,true,0x68,false,
"I2C","data",4.99946475,0.000021125,true,,,0x00
"I2C","start",4.999489,0.000000125,,,,
"I2C","address",4.9994915,0.000021125,true,0x68,true,
"I2C","data",4.999514,0.000021125,true,,,0x30
"I2C","data",4.9995365,0.000021125,true,,,0x28
"I2C","data",4.999559,0.000021125,true,,,0x23
"I2C","data",4.9995815,0.000021125,true,,,0x01
"I2C","data",4.999604,0.000021125,true,,,0x05
"I2C","data",4.9996265,0.000021125,true,,,0x10
"I2C","data",4.999649,0.000021125,false,,,0x26
"I2C","stop",4.999673375,0.000000125,,,,
"I2C","start",4.999756375,0.000000125,,,,
"I2C","address",4.999758875,0.00002125,true,0x68,false,
"I2C","data",4.999781375,0.00002125,true,,,0x0F
"I2C","start",4.999805625,0.000000125,,,,
"I2C","address",4.99980825,0.000021125,true,0x68,true,
"I2C","data",4.99983075,0.000021125,false,,,0x65
"I2C","stop",4.999855,0.000000125,,,,
"I2C","start",9.98784525,0.000000125,,,,
"I2C","address",9.987847875,0.000021125,true,0x76,false,
"I2C","data",9.987870375,0.000021125,true,,,0xF2
"I2C","data",9.987892875,0.000021125,true,,,0x01
"I2C","stop",9.98791725,0.000000125,,,,
"I2C","start",9.9879865,0.000000125,,,,
"I2C","address",9.987989125,0.000021125,true,0x76,false,
"I2C","data",9.988011625,0.000021125,true,,,0xF4
"I2C","data",9.988034125,0.000021125,true,,,0x25
"I2C","stop",9.9880585,0.000000125,,,,
"I2C","start",9.99827175,0.000000125,,,,
"I2C","address",9.99827425,0.00002125,true,0x76,false,
"I2C","data",9.99829675,0.00002125,true,,,0xF3
"I2C","start",9.998321,0.000000125,,,,
"I2C","address",9.998323625,0.000021125,true,0x76,true,
"I2C","data",9.998346125,0.000021125,false,,,0x00
"I2C","stop",9.9983705,0.000000125,,,,
"I2C","start",9.998474625,0.000000125,,,,
"I2C","address",9.99847725,0.000021125,true,0x76,false,
"I2C","data",9.99849975,0.000021125,true,,,0xF7
"I2C","start",9.998523875,0.000000125,,,,
"I2C","address",9.9985265,0.000021125,true,0x76,true,
"I2C","data",9.998549,0.000021125,true,,,0x54
"I2C","data",9.9985715,0.000021125,true,,,0x05
"I2C","data",9.998594,0.000021125,true,,,0x00
"I2C","data",9.9986165,0.000021125,true,,,0x7D
"I2C","data",9.998639,0.000021125,true,,,0x7D
"I2C","data",9.9986615,0.000021125,true,,,0x00
"I2C","data",9.998684,0.000021125,true,,,0x63
"I2C","data",9.9987065,0.000021125,false,,,0xAF
"I2C","stop",9.998730875,0.000000125,,,,
"I2C","start",9.99888725,0.000000125,,,,
"I2C","address",9.998889875,0.000021125,true,0x68,false,
"I2C","data",9.998912375,0.000021125,true,,,0x00
"I2C","start",9.9989365,0.000000125,,,,
"I2C","address",9.998939125,0.000021125,true,0x68,true,
"I2C","data",9.998961625,0.000021125,true,,,0x35
"I2C","data",9.998984125,0.000021125,true,,,0x28
"I2C","data",9.999006625,0.000021125,true,,,0x23
"I2C","data",9.999029125,0.000021125,true,,,0x01
"I2C","data",9.999051625,0.000021125,true,,,0x05
"I2C","data",9.999074125,0.000021125,true,,,0x10
"I2C","data",9.999096625,0.000021125,false,,,0x26
"I2C","stop",9.999121,0.000000125,,,,
"I2C","start",9.999203875,0.000000125,,,,
"I2C","address",9.9992065,0.000021125,true,0x68,false,
"I2C","data",9.999229,0.000021125,true,,,0x0F
"I2C","start",9.999253125,0.000000125,,,,
"I2C","address",9.99925575,0.000021125,true,0x68,true,
"I2C","data",9.99927825,0.000021125,false,,,0x65
"I2C","stop",9.999302625,0.000000125,,,,
"I2C","start",14.98758725,0.000000125,,,,
"I2C","address",14.987589875,0.000021125,true,0x76,false,
"I2C","data",14.987612375,0.000021125,true,,,0xF2
"I2C","data",14.987634875,0.000021125,true,,,0x01
"I2C","stop",14.98765925,0.000000125,,,,
"I2C","start",14.9877285,0.000000125,,,,
"I2C","address",14.987731125,0.000021125,true,0x76,false,
"I2C","data",14.987753625,0.000021125,true,,,0xF4
"I2C","data",14.987776125,0.000021125,true,,,0x25
"I2C","stop",14.9878005,0.000000125,,,,
"I2C","start",14.99801375,0.000000125,,,,
"I2C","address",14.998016375,0.000021125,true,0x76,false,
"I2C","data",14.998038875,0.000021125,true,,,0xF3
"I2C","start",14.998063,0.000000125,,,,
"I2C","address",14.998065625,0.000021125,true,0x76,true,
"I2C","data",14.998088125,0.000021125,false,,,0x00
"I2C","stop",14.9981125,0.000000125,,,,
"I2C","start",14.998216625,0.000000125,,,,
"I2C","address",14.99821925,0.000021125,true,0x76,false,
"I2C","data",14.99824175,0.000021125,true,,,0xF7
"I2C","start",14.998265875,0.000000125,,,,
"I2C","address",14.9982685,0.000021125,true,0x76,true,
"I2C","data",14.998291,0.000021125,true,,,0x54
"I2C","data",14.9983135,0.000021125,true,,,0x03
"I2C","data",14.998336,0.000021125,true,,,0x00
"I2C","data",14.9983585,0.000021125,true,,,0x7D
"I2C","data",14.998381,0.000021125,true,,,0x7D
"I2C","data",14.9984035,0.000021125,true,,,0x00
"I2C","data",14.998426,0.000021125,true,,,0x63
"I2C","data",14.9984485,0.000021125,false,,,0xAD
"I2C","stop",14.998472875,0.000000125,,,,
"I2C","start",14.99862925,0.000000125,,,,
"I2C","address",14.998631875,0.000021125,true,0x68,false,
"I2C","data",14.998654375,0.000021125,true,,,0x00
"I2C","start",14.9986785,0.000000125,,,,
"I2C","address",14.998681125,0.000021125,true,0x68,true,
"I2C","data",14.998703625,0.000021125,true,,,0x40
"I2C","data",14.998726125,0.000021125,true,,,0x28
"I2C","data",14.998748625,0.000021125,true,,,0x23
"I2C","data",14.998771125,0.000021125,true,,,0x01
"I2C","data",14.998793625,0.000021125,true,,,0x05
"I2C","data",14.998816125,0.000021125,true,,,0x10
"I2C","data",14.998838625,0.000021125,false,,,0x26
"I2C","stop",14.998863,0.000000125,,,,
"I2C","start",14.998945875,0.000000125,,,,
"I2C","address",14.9989485,0.000021125,true,0x68,false,
"I2C","data",14.998971,0.000021125,true,,,0x0F
"I2C","start",14.99899525,0.000000125,,,,
"I2C","address",14.99899775,0.00002125,true,0x68,true,
"I2C","data",14.99902025,0.00002125,false,,,0x65
"I2C","stop",14.999044625,0.000000125,,,,
