name,type,start_time,duration,"ack","address","read","data"
"I2C","start",2.5476445,0.000000125,,,,
"I2C","address",2.547647125,0.000021125,true,0x76,false,
"I2C","data",2.547669625,0.000021125,true,,,0xF2
"I2C","data",2.547692125,0.000021125,true,,,0x01
"I2C","stop",2.5477165,0.000000125,,,,
"I2C","start",2.547789125,0.000000125,,,,
"I2C","address",2.54779175,0.000021125,true,0x76,false,
"I2C","data",2.54781425,0.000021125,true,,,0xF4
"I2C","data",2.54783675,0.000021125,true,,,0x25
"I2C","stop",2.547861125,0.000000125,,,,
"I2C","start",2.558073875,0.000000125,,,,
"I2C","address",2.5580765,0.000021125,true,0x76,false,
"I2C","data",2.558099,0.000021125,true,,,0xF3
"I2C","start",2.558123125,0.000000125,,,,
"I2C","address",2.55812575,0.000021125,true,0x76,true,
"I2C","data",2.55814825,0.000021125,false,,,0x00
"I2C","stop",2.558172625,0.000000125,,,,
"I2C","start",2.558286625,0.000000125,,,,
"I2C","address",2.55828925,0.000021125,true,0x76,false,
"I2C","data",2.558311625,0.00002125,true,,,0xF7
"I2C","start",2.558335875,0.000000125,,,,
"I2C","address",2.5583385,0.000021125,true,0x76,true,
"I2C","data",2.558361,0.000021125,true,,,0x53
"I2C","data",2.5583835,0.000021125,true,,,0xF9
"I2C","data",2.558406,0.000021125,true,,,0x00
"I2C","data",2.5584285,0.000021125,true,,,0x7D
"I2C","data",2.558451,0.000021125,true,,,0x5D
"I2C","data",2.5584735,0.000021125,true,,,0x00
"I2C","data",2.558496,0.000021125,true,,,0x63
"I2C","data",2.5585185,0.000021125,false,,,0xB7
"I2C","stop",2.558542875,0.000000125,,,,
"I2C","start",2.55871775,0.000000125,,,,
"I2C","address",2.558720375,0.000021125,true,0x68,false,
"I2C","data",2.558742875,0.000021125,true,,,0x00
"I2C","start",2.558767125,0.000000125,,,,
"I2C","address",2.558769625,0.00002125,true,0x68,true,
"I2C","data",2.558792125,0.00002125,true,,,0x17
"I2C","data",2.558814625,0.00002125,true,,,0x36
"I2C","data",2.558837125,0.00002125,true,,,0x23
"I2C","data",2.558859625,0.00002125,true,,,0x01
"I2C","data",2.558882125,0.00002125,true,,,0x05
"I2C","data",2.558904625,0.00002125,true,,,0x10
"I2C","data",2.558927125,0.00002125,false,,,0x26
"I2C","stop",2.5589515,0.000000125,,,,
"I2C","start",2.5590345,0.000000125,,,,
"I2C","address",2.559037125,0.000021125,true,0x68,false,
"I2C","data",2.559059625,0.000021125,true,,,0x0F
"I2C","start",2.55908375,0.000000125,,,,
"I2C","address",2.559086375,0.000021125,true,0x68,true,
"I2C","data",2.559108875,0.000021125,false,,,0x65
"I2C","stop",2.55913325,0.000000125,,,,
"I2C","start",7.54729925,0.000000125,,,,
"I2C","address",7.547301875,0.000021125,true,0x76,false,
"I2C","data",7.547324375,0.000021125,true,,,0xF2
"I2C","data",7.547346875,0.000021125,true,,,0x01
"I2C","stop",7.54737125,0.000000125,,,,
"I2C","start",7.547444,0.000000125,,,,
"I2C","address",7.547446625,0.000021125,true,0x76,false,
"I2C","data",7.547469125,0.000021125,true,,,0xF4
"I2C","data",7.547491625,0.000021125,true,,,0x25
"I2C","stop",7.547516,0.000000125,,,,
"I2C","start",7.55772525,0.000000125,,,,
"I2C","address",7.557727875,0.000021125,true,0x76,false,
"I2C","data",7.557750375,0.000021125,true,,,0xF3
"I2C","start",7.5577745,0.000000125,,,,
"I2C","address",7.557777125,0.000021125,true,0x76,true,
"I2C","data",7.557799625,0.000021125,false,,,0x00
"I2C","stop",7.557824,0.000000125,,,,
"I2C","start",7.557927,0.000000125,,,,
"I2C","address",7.557929625,0.000021125,true,0x76,false,
"I2C","data",7.557952125,0.000021125,true,,,0xF7
"I2C","start",7.557976375,0.000000125,,,,
"I2C","address",7.557978875,0.00002125,true,0x76,true,
"I2C","data",7.558001375,0.00002125,true,,,0x53
"I2C","data",7.558023875,0.00002125,true,,,0xFA
"I2C","data",7.558046375,0.00002125,true,,,0x00
"I2C","data",7.558068875,0.00002125,true,,,0x7D
"I2C","data",7.558091375,0.00002125,true,,,0x5F
"I2C","data",7.558113875,0.00002125,true,,,0x00
"I2C","data",7.558136375,0.00002125,true,,,0x63
"I2C","data",7.558158875,0.000021125,false,,,0x67
"I2C","stop",7.55818325,0.000000125,,,,
"I2C","start",7.5583385,0.000000125,,,,
"I2C","address",7.558341125,0.000021125,true,0x68,false,
"I2C","data",7.558363625,0.000021125,true,,,0x00
"I2C","start",7.558387875,0.000000125,,,,
"I2C","address",7.558390375,0.00002125,true,0x68,true,
"I2C","data",7.558412875,0.00002125,true,,,0x22
"I2C","data",7.558435375,0.00002125,true,,,0x36
"I2C","data",7.558457875,0.00002125,true,,,0x23
"I2C","data",7.558480375,0.00002125,true,,,0x01
"I2C","data",7.558502875,0.00002125,true,,,0x05
"I2C","data",7.558525375,0.00002125,true,,,0x10
"I2C","data",7.558547875,0.00002125,false,,,0x26
"I2C","stop",7.55857225,0.000000125,,,,
"I2C","start",7.55865525,0.000000125,,,,
"I2C","address",7.558657875,0.000021125,true,0x68,false,
"I2C","data",7.558680375,0.000021125,true,,,0x0F
"I2C","start",7.5587045,0.000000125,,,,
"I2C","address",7.558707125,0.000021125,true,0x68,true,
"I2C","data",7.558729625,0.000021125,false,,,0x65
"I2C","stop",7.558754,0.000000125,,,,
"I2C","address",12.54704425,0.00002125,false,0x7F,true,
"I2C","data",12.54706675,0.00002125,false,,,0xFF
"I2C","data",12.54708925,0.00002125,false,,,0xFF
"I2C","data",12.54711175,0.1076405,false,,,0xFF
"I2C","data",12.654753625,0.000021125,false,,,0xFF
"I2C","data",12.654776125,0.000021125,false,,,0xFF
"I2C","data",12.654798625,0.107498875,false,,,0xFF
"I2C","data",12.762298875,0.000021125,false,,,0xFF
"I2C","data",12.762321375,0.000021125,false,,,0xFF
"I2C","data",12.762343875,4.78444075,false,,,0xFF
"I2C","data",17.546786,0.000021125,false,,,0xFF
"I2C","data",17.5468085,0.000021125,false,,,0xFF
"I2C","data",17.546831,0.00424875,false,,,0xFF
"I2C","data",17.551081,0.00002125,false,,,0xFF
"I2C","data",17.5511035,0.00002125,false,,,0xFF
"I2C","data",17.551126,0.107605625,false,,,0xFF
"I2C","data",17.658733,0.000021125,false,,,0xFF
"I2C","data",17.6587555,0.000021125,false,,,0xFF
"I2C","data",17.658778,0.000021125,false,,,0xFF
"I2C","data",17.6588005,0.107495625,false,,,0xFF
"I2C","data",17.7662975,0.000021125,false,,,0xFF
"I2C","data",17.76632,0.000021125,false,,,0xFF
"I2C","start",22.546517125,0.000000125,,,,
"I2C","address",22.546519625,0.00002125,true,0x76,false,
"I2C","data",22.546542125,0.00002125,true,,,0xF2
"I2C","data",22.546564625,0.00002125,true,,,0x01
"I2C","stop",22.546589,0.000000125,,,,
"I2C","start",22.5466605,0.000000125,,,,
"I2C","address",22.546663125,0.000021125,true,0x76,false,
"I2C","data",22.546685625,0.000021125,true,,,0xF4
"I2C","data",22.546708125,0.000021125,true,,,0x25
"I2C","stop",22.546732375,0.000000125,,,,
"I2C","start",22.556939625,0.000000125,,,,
"I2C","address",22.55694225,0.000021125,true,0x76,false,
"I2C","data",22.55696475,0.000021125,true,,,0xF3
"I2C","start",22.556989,0.000000125,,,,
"I2C","address",22.5569915,0.00002125,true,0x76,true,
"I2C","data",22.557014,0.00002125,false,,,0x00
"I2C","stop",22.557038375,0.000000125,,,,
"I2C","start",22.557141875,0.000000125,,,,
"I2C","address",22.5571445,0.000021125,true,0x76,false,
"I2C","data",22.557167,0.000021125,true,,,0xF7
"I2C","start",22.55719125,0.000000125,,,,
"I2C","address",22.55719375,0.000021125,true,0x76,true,
"I2C","data",22.55721625,0.000021125,true,,,0x53
"I2C","data",22.55723875,0.000021125,true,,,0xFB
"I2C","data",22.55726125,0.000021125,true,,,0x00
"I2C","data",22.55728375,0.000021125,true,,,0x7D
"I2C","data",22.55730625,0.000021125,true,,,0x5D
"I2C","data",22.55732875,0.000021125,true,,,0x00
"I2C","data",22.55735125,0.000021125,true,,,0x63
"I2C","data",22.55737375,0.000021125,false,,,0x39
"I2C","stop",22.557398125,0.000000125,,,,
"I2C","start",22.557555125,0.000000125,,,,
"I2C","address",22.557557625,0.00002125,true,0x68,false,
"I2C","data",22.557580125,0.00002125,true,,,0x00
"I2C","start",22.557604375,0.000000125,,,,
"I2C","address",22.557607,0.000021125,true,0x68,true,
"I2C","data",22.5576295,0.000021125,true,,,0x37
"I2C","data",22.557652,0.000021125,true,,,0x36
"I2C","data",22.5576745,0.000021125,true,,,0x23
"I2C","data",22.557697,0.000021125,true,,,0x01
"I2C","data",22.5577195,0.000021125,true,,,0x05
"I2C","data",22.557742,0.000021125,true,,,0x10
"I2C","data",22.5577645,0.000021125,false,,,0x26
"I2C","stop",22.55778875,0.000000125,,,,
"I2C","start",22.55787175,0.000000125,,,,
"I2C","address",22.557874375,0.000021125,true,0x68,false,
"I2C","data",22.557896875,0.000021125,true,,,0x0F
"I2C","start",22.557921,0.000000125,,,,
"I2C","address",22.557923625,0.000021125,true,0x68,true,
"I2C","data",22.557946125,0.000021125,false,,,0x65
"I2C","stop",22.5579705,0.000000125,,,,
